(1740476040.000000) can0 154#000000005E000000
(1740476042.000000) can0 5EB#0000000010040000
(1740476044.000000) can0 13B#0000000041200000
(1740476046.000000) can0 13B#0000000041500000
(1740476048.000000) can0 13B#0000000041800000
(1740476050.000000) can0 13B#0000000041980000
(1740476052.000000) can0 13B#0000000041B00000
(1740476054.000000) can0 13B#0000000041C80000
(1740476056.000000) can0 13B#0000000041E00000
(1740476058.000000) can0 13B#0000000041F80000
(1740476060.000000) can0 13B#0000000042080000
(1740476062.000000) can0 13B#0000000042140000
(1740476064.000000) can0 13B#0000000042200000
(1740476066.000000) can0 13B#00000000422C0000
(1740476068.000000) can0 13B#0000000042380000
(1740476070.000000) can0 13B#0000000042440000
(1740476072.000000) can0 13B#0000000042500000
(1740476074.000000) can0 13B#00000000425C0000
(1740476076.000000) can0 13B#0000000042680000
(1740476078.000000) can0 13B#0000000042740000
(1740476080.000000) can0 13B#0000000042800000
(1740476082.000000) can0 13B#0000000042860000
(1740476084.000000) can0 13B#00000000428C0000
(1740476086.000000) can0 13B#0000000042920000
(1740476088.000000) can0 13B#0000000042980000
(1740476090.000000) can0 13B#00000000429E0000
(1740476092.000000) can0 154#000000005F000000
(1740476094.000000) can0 5EB#0000000010040000
(1740476096.000000) can0 13B#0000000041200000
(1740476098.000000) can0 13B#0000000041500000
(1740476100.000000) can0 13B#0000000041800000
(1740476102.000000) can0 13B#0000000041980000
(1740476104.000000) can0 13B#0000000041B00000
(1740476106.000000) can0 13B#0000000041C80000
(1740476108.000000) can0 13B#0000000041E00000
(1740476110.000000) can0 13B#0000000041F80000
(1740476112.000000) can0 13B#0000000042080000
(1740476114.000000) can0 13B#0000000042140000
(1740476116.000000) can0 13B#0000000042200000
(1740476118.000000) can0 13B#00000000422C0000
(1740476120.000000) can0 13B#0000000042380000
(1740476122.000000) can0 13B#0000000042440000
(1740476124.000000) can0 13B#0000000042500000
(1740476126.000000) can0 13B#00000000425C0000
(1740476128.000000) can0 13B#0000000042680000
(1740476130.000000) can0 13B#0000000042740000
(1740476132.000000) can0 13B#0000000042800000
(1740476134.000000) can0 13B#0000000042860000
(1740476136.000000) can0 13B#00000000428C0000
(1740476138.000000) can0 13B#0000000042920000
(1740476140.000000) can0 13B#0000000042980000
(1740476142.000000) can0 13B#00000000429E0000
(1740476144.000000) can0 154#0000000060000000
(1740476146.000000) can0 5EB#0000000010040000
(1740476148.000000) can0 13B#0000000041200000
(1740476150.000000) can0 13B#0000000041500000
(1740476152.000000) can0 13B#0000000041800000
(1740476154.000000) can0 13B#0000000041980000
(1740476156.000000) can0 13B#0000000041B00000
(1740476158.000000) can0 13B#0000000041C80000
(1740476160.000000) can0 13B#0000000041E00000
(1740476162.000000) can0 13B#0000000041F80000
(1740476164.000000) can0 13B#0000000042080000
(1740476166.000000) can0 13B#0000000042140000
(1740476168.000000) can0 13B#0000000042200000
(1740476170.000000) can0 13B#00000000422C0000
(1740476172.000000) can0 13B#0000000042380000
(1740476174.000000) can0 13B#0000000042440000
(1740476176.000000) can0 13B#0000000042500000
(1740476178.000000) can0 13B#00000000425C0000
(1740476180.000000) can0 13B#0000000042680000
(1740476182.000000) can0 13B#0000000042740000
(1740476184.000000) can0 13B#0000000042800000
(1740476186.000000) can0 13B#0000000042860000
(1740476188.000000) can0 13B#00000000428C0000
(1740476190.000000) can0 13B#0000000042920000
(1740476192.000000) can0 13B#0000000042980000
(1740476194.000000) can0 13B#00000000429E0000
(1740476196.000000) can0 154#0000000061000000
(1740476198.000000) can0 5EB#0000000010040000
(1740476200.000000) can0 13B#0000000041200000
(1740476202.000000) can0 13B#0000000041500000
(1740476204.000000) can0 13B#0000000041800000
(1740476206.000000) can0 13B#0000000041980000
(1740476208.000000) can0 13B#0000000041B00000
(1740476210.000000) can0 13B#0000000041C80000
(1740476212.000000) can0 13B#0000000041E00000
(1740476214.000000) can0 13B#0000000041F80000
(1740476216.000000) can0 13B#0000000042080000
(1740476218.000000) can0 13B#0000000042140000
(1740476220.000000) can0 13B#0000000042200000
(1740476222.000000) can0 13B#00000000422C0000
(1740476224.000000) can0 13B#0000000042380000
(1740476226.000000) can0 13B#0000000042440000
(1740476228.000000) can0 13B#0000000042500000
(1740476230.000000) can0 13B#00000000425C0000
(1740476232.000000) can0 13B#0000000042680000
(1740476234.000000) can0 13B#0000000042740000
(1740476236.000000) can0 13B#0000000042800000
(1740476238.000000) can0 13B#0000000042860000
(1740476240.000000) can0 13B#00000000428C0000
(1740476242.000000) can0 13B#0000000042920000
(1740476244.000000) can0 13B#0000000042980000
(1740476246.000000) can0 13B#00000000429E0000
(1740476248.000000) can0 154#0000000054000000
(1740476250.000000) can0 5EB#0000000010040000
(1740476252.000000) can0 13B#0000000041200000
(1740476254.000000) can0 13B#0000000041500000
(1740476256.000000) can0 13B#0000000041800000
(1740476258.000000) can0 13B#0000000041980000
(1740476260.000000) can0 13B#0000000041B00000
(1740476262.000000) can0 13B#0000000041C80000
(1740476264.000000) can0 13B#0000000041E00000
(1740476266.000000) can0 13B#0000000041F80000
(1740476268.000000) can0 13B#0000000042080000
(1740476270.000000) can0 13B#0000000042140000
(1740476272.000000) can0 13B#0000000042200000
(1740476274.000000) can0 13B#00000000422C0000
(1740476276.000000) can0 13B#0000000042380000
(1740476278.000000) can0 13B#0000000042440000
(1740476280.000000) can0 13B#0000000042500000
(1740476282.000000) can0 13B#00000000425C0000
(1740476284.000000) can0 13B#0000000042680000
(1740476286.000000) can0 13B#0000000042740000
(1740476288.000000) can0 13B#0000000042800000
(1740476290.000000) can0 13B#0000000042860000
(1740476292.000000) can0 13B#00000000428C0000
(1740476294.000000) can0 13B#0000000042920000
(1740476296.000000) can0 13B#0000000042980000
(1740476298.000000) can0 13B#00000000429E0000
(1740476300.000000) can0 154#0000000055000000
(1740476302.000000) can0 5EB#0000000010040000
(1740476304.000000) can0 13B#0000000041200000
(1740476306.000000) can0 13B#0000000041500000
(1740476308.000000) can0 13B#0000000041800000
(1740476310.000000) can0 13B#0000000041980000
(1740476312.000000) can0 13B#0000000041B00000
(1740476314.000000) can0 13B#0000000041C80000
(1740476316.000000) can0 13B#0000000041E00000
(1740476318.000000) can0 13B#0000000041F80000
(1740476320.000000) can0 13B#0000000042080000
(1740476322.000000) can0 13B#0000000042140000
(1740476324.000000) can0 13B#0000000042200000
(1740476326.000000) can0 13B#00000000422C0000
(1740476328.000000) can0 13B#0000000042380000
(1740476330.000000) can0 13B#0000000042440000
(1740476332.000000) can0 13B#0000000042500000
(1740476334.000000) can0 13B#00000000425C0000
(1740476336.000000) can0 13B#0000000042680000
(1740476338.000000) can0 13B#0000000042740000
(1740476340.000000) can0 13B#0000000042800000
(1740476342.000000) can0 13B#0000000042860000
(1740476344.000000) can0 13B#00000000428C0000
(1740476346.000000) can0 13B#0000000042920000
(1740476348.000000) can0 13B#0000000042980000
(1740476350.000000) can0 13B#00000000429E0000
(1740476352.000000) can0 154#00000000FA000000
(1740476354.000000) can0 5EB#0000000010040000
(1740476356.000000) can0 13B#0000000041200000
(1740476358.000000) can0 13B#0000000041500000
(1740476360.000000) can0 13B#0000000041800000
(1740476362.000000) can0 13B#0000000041980000
(1740476364.000000) can0 13B#0000000041B00000
(1740476366.000000) can0 13B#0000000041C80000
(1740476368.000000) can0 13B#0000000041E00000
(1740476370.000000) can0 13B#0000000041F80000
(1740476372.000000) can0 13B#0000000042080000
(1740476374.000000) can0 13B#0000000042140000
(1740476376.000000) can0 13B#0000000042200000
(1740476378.000000) can0 13B#00000000422C0000
(1740476380.000000) can0 13B#0000000042380000
(1740476382.000000) can0 13B#0000000042440000
(1740476384.000000) can0 13B#0000000042500000
(1740476386.000000) can0 13B#00000000425C0000
(1740476388.000000) can0 13B#0000000042680000
(1740476390.000000) can0 13B#0000000042740000
(1740476392.000000) can0 13B#0000000042800000
(1740476394.000000) can0 13B#0000000042860000
(1740476396.000000) can0 13B#00000000428C0000
(1740476398.000000) can0 13B#0000000042920000
(1740476400.000000) can0 13B#0000000042980000
(1740476402.000000) can0 13B#00000000429E0000
(1740476404.000000) can0 154#00000000FC000000
(1740476406.000000) can0 5EB#0000000010040000
(1740476408.000000) can0 13B#0000000041200000
(1740476410.000000) can0 13B#0000000041500000
(1740476412.000000) can0 13B#0000000041800000
(1740476414.000000) can0 13B#0000000041980000
(1740476416.000000) can0 13B#0000000041B00000
(1740476418.000000) can0 13B#0000000041C80000
(1740476420.000000) can0 13B#0000000041E00000
(1740476422.000000) can0 13B#0000000041F80000
(1740476424.000000) can0 13B#0000000042080000
(1740476426.000000) can0 13B#0000000042140000
(1740476428.000000) can0 13B#0000000042200000
(1740476430.000000) can0 13B#00000000422C0000
(1740476432.000000) can0 13B#0000000042380000
(1740476434.000000) can0 13B#0000000042440000
(1740476436.000000) can0 13B#0000000042500000
(1740476438.000000) can0 13B#00000000425C0000
(1740476440.000000) can0 13B#0000000042680000
(1740476442.000000) can0 13B#0000000042740000
(1740476444.000000) can0 13B#0000000042800000
(1740476446.000000) can0 13B#0000000042860000
(1740476448.000000) can0 13B#00000000428C0000
(1740476450.000000) can0 13B#0000000042920000
(1740476452.000000) can0 13B#0000000042980000
(1740476454.000000) can0 13B#00000000429E0000
(1740476456.000000) can0 154#0000000000000000
(1740476458.000000) can0 5EB#0000000010040000
(1740476460.000000) can0 13B#0000000041200000
(1740476462.000000) can0 13B#0000000041500000
(1740476464.000000) can0 13B#0000000041800000
(1740476466.000000) can0 13B#0000000041980000
(1740476468.000000) can0 13B#0000000041B00000
(1740476470.000000) can0 13B#0000000041C80000
(1740476472.000000) can0 13B#0000000041E00000
(1740476474.000000) can0 13B#0000000041F80000
(1740476476.000000) can0 13B#0000000042080000
(1740476478.000000) can0 13B#0000000042140000
(1740476480.000000) can0 13B#0000000042200000
(1740476482.000000) can0 13B#00000000422C0000
(1740476484.000000) can0 13B#0000000042380000
(1740476486.000000) can0 13B#0000000042440000
(1740476488.000000) can0 13B#0000000042500000
(1740476490.000000) can0 13B#00000000425C0000
(1740476492.000000) can0 13B#0000000042680000
(1740476494.000000) can0 13B#0000000042740000
(1740476496.000000) can0 13B#0000000042800000
(1740476498.000000) can0 13B#0000000042860000
(1740476500.000000) can0 13B#00000000428C0000
(1740476502.000000) can0 13B#0000000042920000
(1740476504.000000) can0 13B#0000000042980000
(1740476506.000000) can0 13B#00000000429E0000
(1740476508.000000) can0 154#00000000E6000000
(1740476510.000000) can0 5EB#0000000010040000
(1740476512.000000) can0 13B#0000000041200000
(1740476514.000000) can0 13B#0000000041500000
(1740476516.000000) can0 13B#0000000041800000
(1740476518.000000) can0 13B#0000000041980000
(1740476520.000000) can0 13B#0000000041B00000
(1740476522.000000) can0 13B#0000000041C80000
(1740476524.000000) can0 13B#0000000041E00000
(1740476526.000000) can0 13B#0000000041F80000
(1740476528.000000) can0 13B#0000000042080000
(1740476530.000000) can0 13B#0000000042140000
(1740476532.000000) can0 13B#0000000042200000
(1740476534.000000) can0 13B#00000000422C0000
(1740476536.000000) can0 13B#0000000042380000
(1740476538.000000) can0 13B#0000000042440000
(1740476540.000000) can0 13B#0000000042500000
(1740476542.000000) can0 13B#00000000425C0000
(1740476544.000000) can0 13B#0000000042680000
(1740476546.000000) can0 13B#0000000042740000
(1740476548.000000) can0 13B#0000000042800000
(1740476550.000000) can0 13B#0000000042860000
(1740476552.000000) can0 13B#00000000428C0000
(1740476554.000000) can0 13B#0000000042920000
(1740476556.000000) can0 13B#0000000042980000
(1740476558.000000) can0 13B#00000000429E0000
(1740476560.000000) can0 154#000000009D000000
(1740476562.000000) can0 5EB#0000000010040000
(1740476564.000000) can0 13B#0000000041200000
(1740476566.000000) can0 13B#0000000041500000
(1740476568.000000) can0 13B#0000000041800000
(1740476570.000000) can0 13B#0000000041980000
(1740476572.000000) can0 13B#0000000041B00000
(1740476574.000000) can0 13B#0000000041C80000
(1740476576.000000) can0 13B#0000000041E00000
(1740476578.000000) can0 13B#0000000041F80000
(1740476580.000000) can0 13B#0000000042080000
(1740476582.000000) can0 13B#0000000042140000
(1740476584.000000) can0 13B#0000000042200000
(1740476586.000000) can0 13B#00000000422C0000
(1740476588.000000) can0 13B#0000000042380000
(1740476590.000000) can0 13B#0000000042440000
(1740476592.000000) can0 13B#0000000042500000
(1740476594.000000) can0 13B#00000000425C0000
(1740476596.000000) can0 13B#0000000042680000
(1740476598.000000) can0 13B#0000000042740000
(1740476600.000000) can0 13B#0000000042800000
(1740476602.000000) can0 13B#0000000042860000
(1740476604.000000) can0 13B#00000000428C0000
(1740476606.000000) can0 13B#0000000042920000
(1740476608.000000) can0 13B#0000000042980000
(1740476610.000000) can0 13B#00000000429E0000
(1740476612.000000) can0 154#00000000A7000000
(1740476614.000000) can0 5EB#0000000010040000
(1740476616.000000) can0 13B#0000000041200000
(1740476618.000000) can0 13B#0000000041500000
(1740476620.000000) can0 13B#0000000041800000
(1740476622.000000) can0 13B#0000000041980000
(1740476624.000000) can0 13B#0000000041B00000
(1740476626.000000) can0 13B#0000000041C80000
(1740476628.000000) can0 13B#0000000041E00000
(1740476630.000000) can0 13B#0000000041F80000
(1740476632.000000) can0 13B#0000000042080000
(1740476634.000000) can0 13B#0000000042140000
(1740476636.000000) can0 13B#0000000042200000
(1740476638.000000) can0 13B#00000000422C0000
(1740476640.000000) can0 13B#0000000042380000
(1740476642.000000) can0 13B#0000000042440000
(1740476644.000000) can0 13B#0000000042500000
(1740476646.000000) can0 13B#00000000425C0000
(1740476648.000000) can0 13B#0000000042680000
(1740476650.000000) can0 13B#0000000042740000
(1740476652.000000) can0 13B#0000000042800000
(1740476654.000000) can0 13B#0000000042860000
(1740476656.000000) can0 13B#00000000428C0000
(1740476658.000000) can0 13B#0000000042920000
(1740476660.000000) can0 13B#0000000042980000
(1740476662.000000) can0 13B#00000000429E0000
